
T1B08 000:410 SEGGER J-Link V4.40c Log File (0002ms, 0409ms total)
T1B08 000:410 DLL Compiled: Jan 24 2012 09:30:33 (0002ms, 0409ms total)
T1B08 000:410 Logging started @ 2014-05-02 12:30 (0002ms, 0409ms total)
T1B08 000:412 JLINK_SetWarnOutHandler(...) (0000ms, 0411ms total)
T1B08 000:412 JLINK_OpenEx(...)
Firmware: J-Link ARM V8 compiled Jan 31 2018 18:34:52
Hardware: V8.00
S/N: 20080643
Feature(s): RDI,FlashDL,FlashBP,JFlash,GDBFull  returns O.K. (0163ms, 0411ms total)
T1B08 000:575 JLINK_SetErrorOutHandler(...) (0001ms, 0574ms total)
T1B08 000:577 JLINK_ExecCommand("Device = STM32L152RB", ...)
                JLINK_ExecCommand("map ram 0x20000000 - 0x20003FFF", ...)  returns 0x00 (0000ms, 0000ms total)
                JLINK_AddMirrorAreaEx(Addr = 0x00000000, Size = 0x00000000) (0000ms, 0000ms total)
              Device "STM32L152RB" selected (128 KB flash, 16 KB RAM).  returns 0x00 (0004ms, 0575ms total)
T1B08 000:582 JLINK_ExecCommand("ProjectFile = "D:\360data\重要数据\桌面\STM32\ucos3_example - probe-success\stm32l15xx_ucos3\Micrium\Software\EvalBoards\ST\STM32L152-EVAL\uCOS-III\KeilMDK\JLinkSettings.ini"", ...)  returns 0x00 (0001ms, 0579ms total)
T1B08 000:586 JLINK_ExecCommand("DisableConnectionTimeout", ...)  returns 0x00 (0000ms, 0580ms total)
T1B08 000:586 JLINK_TIF_Select(JLINKARM_TIF_JTAG)  returns 0x00 (0000ms, 0580ms total)
T1B08 000:587 JLINK_SetSpeed(2000) (0000ms, 0581ms total)
T1B08 000:587 JLINK_GetHardwareVersion()  returns 0x13880 (0000ms, 0581ms total)
T1B08 000:587 JLINK_GetDLLVersion()  returns 44003 (0000ms, 0581ms total)
T1B08 000:587 JLINK_GetFirmwareString(...) (0000ms, 0581ms total)
T1B08 000:595 JLINK_GetDLLVersion()  returns 44003 (0000ms, 0581ms total)
T1B08 000:595 JLINK_GetCompileDateTime() (0001ms, 0581ms total)
T1B08 000:599 JLINK_GetFirmwareString(...) (0000ms, 0582ms total)
T1B08 000:602 JLINK_GetHardwareVersion()  returns 0x13880 (0000ms, 0582ms total)
T1B08 000:613 JLINK_GetIdData(...) >0x2F8 JTAG>TotalIRLen = 9, IRPrint = 0x0011 >0x30 JTAG> >0x210 JTAG> >0x80 JTAG> >0x40 JTAG> >0x40 JTAG> >0x50 JTAG> >0x40 JTAG> >0x40 JTAG> >0x40 JTAG> >0x50 JTAG> >0x40 JTAG> >0x50 JTAG> >0x40 JTAG> >0x40 JTAG> >0x40 JTAG> >0x30 JTAG> >0x40 JTAG> >0x50 JTAG> >0x40 JTAG> >0x38 JTAG> >0x80 JTAG> >0x40 JTAG> >0x40 JTAG> >0x50 JTAG> >0x40 JTAG> >0x40 JTAG> >0x40 JTAG> >0x50 JTAG> >0x40 JTAG> >0x40 JTAG> >0x30 JTAG> >0x40 JTAG> >0x40 JTAG> >0x40 JTAG> >0x40 JTAG>
 >0x40 JTAG> >0x50 JTAG> >0x40 JTAG> >0x80 JTAG> >0x40 JTAG> >0x30 JTAG> >0x40 JTAG> >0x40 JTAG> >0x40 JTAG> >0x40 JTAG> >0x40 JTAG> >0x50 JTAG> >0x40 JTAG> >0x80 JTAG> >0x40 JTAG> >0x30 JTAG> >0x40 JTAG> >0x50 JTAG> >0x40 JTAG> >0x40 JTAG> >0x40 JTAG> >0x30 JTAG> >0x40 JTAG> >0x50 JTAG> >0x40 JTAG>Found Cortex-M3 r2p0, Little endian. >0x50 JTAG> >0x50 JTAG> >0x40 JTAG> >0x40 JTAG> >0x30 JTAG> >0x30 JTAG> >0x50 JTAG> >0x40 JTAG> >0x80 JTAG> >0x40 JTAG> >0x30 JTAG> >0x40 JTAG> >0x50 JTAG> >0x40 JTAG>
 >0x40 JTAG> >0x40 JTAG> >0x30 JTAG> >0x40 JTAG> >0x50 JTAG> >0x40 JTAG>TPIU fitted. >0x40 JTAG> >0x40 JTAG> >0x30 JTAG> >0x40 JTAG> >0x50 JTAG> >0x40 JTAG>ETM fitted. >0x40 JTAG> >0x40 JTAG> >0x30 JTAG> >0x40 JTAG> >0x50 JTAG> >0x40 JTAG> >0x40 JTAG> >0x40 JTAG> >0x30 JTAG> >0x40 JTAG> >0x50 JTAG> >0x40 JTAG>  FPUnit: 6 code (BP) slots and 2 literal slots >0x40 JTAG> >0x40 JTAG> >0x30 JTAG> >0x40 JTAG> >0x50 JTAG> >0x40 JTAG> >0x40 JTAG> >0x40 JTAG> >0x30 JTAG> >0x40 JTAG> >0x50 JTAG> >0x40 JTAG>
 ScanLen=9 NumDevices=2 aId[0]=0x4BA00477 aIrRead[0]=0 aScanLen[0]=0 aScanRead[0]=0 (0128ms, 0582ms total)
T1B08 000:741 JLINK_JTAG_GetDeviceID(DeviceIndex = 0)  returns 0x4BA00477 (0000ms, 0710ms total)
T1B08 000:741 JLINK_JTAG_GetDeviceInfo(DeviceIndex = 0)  returns 0x00 (0000ms, 0710ms total)
T1B08 000:741 JLINK_JTAG_GetDeviceID(DeviceIndex = 1)  returns 0x6416041 (0000ms, 0710ms total)
T1B08 000:741 JLINK_JTAG_GetDeviceInfo(DeviceIndex = 1)  returns 0x00 (0000ms, 0710ms total)
T1B08 000:741 JLINK_GetDebugInfo(0x100) -- Value=0xE00FF003  returns 0x00 (0000ms, 0710ms total)
T1B08 000:743 JLINK_ReadMem (0xE00FFFF0, 0x0010 Bytes, ...) -- CPU is running -- CPU_ReadMem(16 bytes @ 0xE00FFFF0) -- Data:  0D 00 00 00 10 00 00 00 05 00 00 00 B1 00 00 00  returns 0x00 (0004ms, 0710ms total)
T1B08 000:747 JLINK_ReadMem (0xE00FFFD0, 0x0020 Bytes, ...) -- CPU is running -- CPU_ReadMem(32 bytes @ 0xE00FFFD0) -- Data:  00 00 00 00 00 00 00 00 00 00 00 00 00 00 00 00 ...  returns 0x00 (0001ms, 0714ms total)
T1B08 000:748 JLINK_ReadMem (0xE00FF000, 0x0018 Bytes, ...) -- CPU is running -- CPU_ReadMem(24 bytes @ 0xE00FF000) -- Data:  03 F0 F0 FF 03 20 F0 FF 03 30 F0 FF 03 10 F0 FF ...  returns 0x00 (0001ms, 0715ms total)
T1B08 000:749 JLINK_ReadMemU32(0xE000ED00, 0x0001 Items, ...) -- CPU is running -- CPU_ReadMem(4 bytes @ 0xE000ED00) -- Data:  30 C2 2F 41  returns 0x01 (0001ms, 0716ms total)
T1B08 000:750 JLINK_SetResetType(JLINKARM_RESET_TYPE_NORMAL)  returns JLINKARM_RESET_TYPE_NORMAL (0000ms, 0717ms total)
T1B08 000:750 JLINK_Reset() >0x308 JTAG>TotalIRLen = 9, IRPrint = 0x0011 >0x30 JTAG> >0x210 JTAG> >0x80 JTAG> >0x40 JTAG> >0x40 JTAG> >0x50 JTAG> >0x40 JTAG> >0x40 JTAG> >0x40 JTAG> >0x50 JTAG> >0x40 JTAG> >0x50 JTAG> >0x40 JTAG> >0x40 JTAG> >0x40 JTAG> >0x30 JTAG> >0x40 JTAG> >0x50 JTAG> >0x40 JTAG> >0x38 JTAG> >0x80 JTAG> >0x40 JTAG> >0x40 JTAG> >0x50 JTAG> >0x40 JTAG> >0x40 JTAG> >0x40 JTAG> >0x50 JTAG> >0x40 JTAG> >0x40 JTAG> >0x30 JTAG> >0x40 JTAG> >0x40 JTAG> >0x40 JTAG> >0x40 JTAG> >0x40 JTAG>
 >0x50 JTAG> >0x40 JTAG> >0x80 JTAG> >0x40 JTAG> >0x30 JTAG> >0x40 JTAG> >0x40 JTAG> >0x40 JTAG> >0x40 JTAG> >0x40 JTAG> >0x50 JTAG> >0x40 JTAG> >0x80 JTAG> >0x40 JTAG> >0x30 JTAG> >0x40 JTAG> >0x50 JTAG> >0x40 JTAG> >0x40 JTAG> >0x40 JTAG> >0x30 JTAG> >0x40 JTAG> >0x50 JTAG> >0x40 JTAG>Found Cortex-M3 r2p0, Little endian. >0x50 JTAG> >0x50 JTAG> >0x40 JTAG> >0x40 JTAG> >0x30 JTAG> >0x30 JTAG> >0x50 JTAG> >0x40 JTAG> >0x80 JTAG> >0x40 JTAG> >0x30 JTAG> >0x40 JTAG> >0x50 JTAG> >0x40 JTAG> >0x40 JTAG>
 >0x40 JTAG> >0x30 JTAG> >0x40 JTAG> >0x50 JTAG> >0x40 JTAG>TPIU fitted. >0x40 JTAG> >0x40 JTAG> >0x30 JTAG> >0x40 JTAG> >0x50 JTAG> >0x40 JTAG>ETM fitted. >0x40 JTAG> >0x40 JTAG> >0x30 JTAG> >0x40 JTAG> >0x50 JTAG> >0x40 JTAG> >0x40 JTAG> >0x40 JTAG> >0x30 JTAG> >0x40 JTAG> >0x50 JTAG> >0x40 JTAG>  FPUnit: 6 code (BP) slots and 2 literal slots >0x40 JTAG> >0x40 JTAG> >0x30 JTAG> >0x40 JTAG> >0x50 JTAG> >0x40 JTAG> >0x40 JTAG> >0x40 JTAG> >0x30 JTAG> >0x40 JTAG> >0x50 JTAG> >0x40 JTAG> >0x48 JTAG>
 >0x80 JTAG> >0x40 JTAG> >0x40 JTAG> >0x50 JTAG> >0x40 JTAG> >0x40 JTAG> >0x40 JTAG> >0x50 JTAG> >0x40 JTAG> >0x40 JTAG> >0x30 JTAG> >0x40 JTAG> >0x40 JTAG> >0x40 JTAG> >0x40 JTAG> >0x40 JTAG> >0x50 JTAG> >0x40 JTAG> >0x80 JTAG> >0x40 JTAG> >0x30 JTAG> >0x40 JTAG> >0x40 JTAG> >0x40 JTAG> >0x40 JTAG> >0x40 JTAG> >0x50 JTAG> >0x40 JTAG> >0x80 JTAG> >0x40 JTAG> >0x30 JTAG> >0x40 JTAG> >0x50 JTAG> >0x40 JTAG> >0x40 JTAG> >0x40 JTAG> >0x30 JTAG> >0x40 JTAG> >0x50 JTAG> >0x40 JTAG>
Found Cortex-M3 r2p0, Little endian. >0x50 JTAG> >0x50 JTAG> >0x40 JTAG> >0x40 JTAG> >0x30 JTAG> >0x30 JTAG> >0x50 JTAG> >0x40 JTAG> >0x80 JTAG> >0x40 JTAG> >0x30 JTAG> >0x40 JTAG> >0x50 JTAG> >0x40 JTAG> >0x40 JTAG> >0x40 JTAG> >0x30 JTAG> >0x40 JTAG> >0x50 JTAG> >0x40 JTAG>TPIU fitted. >0x40 JTAG> >0x40 JTAG> >0x30 JTAG> >0x40 JTAG> >0x50 JTAG> >0x40 JTAG>ETM fitted. >0x40 JTAG> >0x40 JTAG> >0x30 JTAG> >0x40 JTAG> >0x50 JTAG> >0x40 JTAG> >0x40 JTAG> >0x40 JTAG> >0x30 JTAG> >0x40 JTAG> >0x50 JTAG>
 >0x40 JTAG>  FPUnit: 6 code (BP) slots and 2 literal slots >0x40 JTAG> >0x40 JTAG> >0x30 JTAG> >0x40 JTAG> >0x50 JTAG> >0x40 JTAG> >0x40 JTAG> >0x40 JTAG> >0x30 JTAG> >0x40 JTAG> >0x50 JTAG> >0x40 JTAG> -- CPU is running -- CPU_WriteMem(4 bytes @ 0xE000EDF0) -- CPU is running -- CPU_WriteMem(4 bytes @ 0xE000EDFC) -- CPU is running -- CPU_WriteMem(4 bytes @ 0xE000ED0C) -- CPU is running -- CPU_ReadMem(4 bytes @ 0xE000EDF0) -- CPU is running -- CPU_ReadMem(4 bytes @ 0xE000EDF0) -- CPU is running
 -- CPU_ReadMem(4 bytes @ 0xE000EDF0) -- CPU is running -- CPU_ReadMem(4 bytes @ 0xE000EDF0) -- CPU is running -- CPU_WriteMem(4 bytes @ 0xE000EDF0) -- CPU is running -- CPU_WriteMem(4 bytes @ 0xE000EDFC) -- CPU is running -- CPU_ReadMem(4 bytes @ 0xE000EDF0) >0x90 JTAG> >0x40 JTAG> >0x30 JTAG> >0x40 JTAG> >0x50 JTAG> >0x40 JTAG> -- CPU_WriteMem(4 bytes @ 0xE000EDFC) -- CPU_WriteMem(4 bytes @ 0xE0001028) -- CPU_WriteMem(4 bytes @ 0xE0001038) -- CPU_WriteMem(4 bytes @ 0xE0001048)
 -- CPU_WriteMem(4 bytes @ 0xE0001058) (0271ms, 0717ms total)
T1B08 001:022 JLINK_Halt()  returns 0x00 (0001ms, 0988ms total)
T1B08 001:023 JLINK_IsHalted()  returns TRUE (0000ms, 0989ms total)
T1B08 001:023 JLINK_ReadMemU32(0xE000EDF0, 0x0001 Items, ...) -- CPU_ReadMem(4 bytes @ 0xE000EDF0) -- Data:  03 00 03 00  returns 0x01 (0001ms, 0989ms total)
T1B08 001:024 JLINK_WriteU32(0xE000EDF0, 0xA05F0003) -- CPU_WriteMem(4 bytes @ 0xE000EDF0)  returns 0x00 (0001ms, 0990ms total)
T1B08 001:025 JLINK_WriteU32(0xE000EDFC, 0x01000000) -- CPU_WriteMem(4 bytes @ 0xE000EDFC)  returns 0x00 (0001ms, 0991ms total)
T1B08 001:040 JLINK_GetHWStatus(...)  returns 0x00 (0002ms, 0992ms total)
T1B08 001:054 JLINK_GetNumBPUnits(Type = 0xFFFFFF00)  returns 0x06 (0000ms, 0994ms total)
T1B08 001:054 JLINK_GetNumBPUnits(Type = 0xF0)  returns 0x2000 (0000ms, 0994ms total)
T1B08 001:054 JLINK_GetNumWPUnits()  returns 0x04 (0000ms, 0994ms total)
T1B08 001:067 JLINK_GetSpeed()  returns 0x7D0 (0000ms, 0994ms total)
T1B08 001:072 JLINK_ReadMemU32(0xE000E004, 0x0001 Items, ...) -- CPU_ReadMem(4 bytes @ 0xE000E004) -- Data:  01 00 00 00  returns 0x01 (0002ms, 0994ms total)
T1B08 001:074 JLINK_ReadMemU32(0xE000E004, 0x0001 Items, ...) -- CPU_ReadMem(4 bytes @ 0xE000E004) -- Data:  01 00 00 00  returns 0x01 (0001ms, 0996ms total)
T1B08 001:075 JLINK_WriteMem(0xE0001000, 0x001C Bytes, ...) -- Data:  01 00 00 00 00 00 00 00 00 00 00 00 00 00 00 00 ... -- CPU_WriteMem(28 bytes @ 0xE0001000)  returns 0x1C (0001ms, 0997ms total)
T1B08 001:076 JLINK_ReadMem (0xE0001000, 0x001C Bytes, ...) -- CPU_ReadMem(28 bytes @ 0xE0001000) -- Data:  01 00 00 40 00 00 00 00 00 00 00 00 00 00 00 00 ...  returns 0x00 (0001ms, 0998ms total)
T1B08 001:077 JLINK_Halt()  returns 0x00 (0000ms, 0999ms total)
T1B08 001:077 JLINK_IsHalted()  returns TRUE (0000ms, 0999ms total)
T1B08 001:079 JLINK_WriteMem(0x20000000, 0x0250 Bytes, ...) -- Data:  00 BE 0A E0 0D 78 2D 06 68 40 08 24 40 00 00 D3 ... -- CPU_WriteMem(592 bytes @ 0x20000000)  returns 0x250 (0010ms, 0999ms total)
T1B08 001:089 JLINK_WriteReg(R0, 0x08000000)  returns 0x00 (0000ms, 1009ms total)
T1B08 001:089 JLINK_WriteReg(R1, 0x007A1200)  returns 0x00 (0000ms, 1009ms total)
T1B08 001:089 JLINK_WriteReg(R2, 0x00000001)  returns 0x00 (0000ms, 1009ms total)
T1B08 001:089 JLINK_WriteReg(R3, 0x00000000)  returns 0x00 (0000ms, 1009ms total)
T1B08 001:089 JLINK_WriteReg(R4, 0x00000000)  returns 0x00 (0000ms, 1009ms total)
T1B08 001:089 JLINK_WriteReg(R5, 0x00000000)  returns 0x00 (0000ms, 1009ms total)
T1B08 001:089 JLINK_WriteReg(R6, 0x00000000)  returns 0x00 (0000ms, 1009ms total)
T1B08 001:089 JLINK_WriteReg(R7, 0x00000000)  returns 0x00 (0000ms, 1009ms total)
T1B08 001:089 JLINK_WriteReg(R8, 0x00000000)  returns 0x00 (0000ms, 1009ms total)
T1B08 001:089 JLINK_WriteReg(R9, 0x2000024C)  returns 0x00 (0000ms, 1009ms total)
T1B08 001:089 JLINK_WriteReg(R10, 0x00000000)  returns 0x00 (0000ms, 1009ms total)
T1B08 001:089 JLINK_WriteReg(R11, 0x00000000)  returns 0x00 (0000ms, 1009ms total)
T1B08 001:089 JLINK_WriteReg(R12, 0x00000000)  returns 0x00 (0000ms, 1009ms total)
T1B08 001:089 JLINK_WriteReg(R13, 0x20000800)  returns 0x00 (0000ms, 1009ms total)
T1B08 001:089 JLINK_WriteReg(R14, 0x20000001)  returns 0x00 (0000ms, 1009ms total)
T1B08 001:089 JLINK_WriteReg(R15, 0x20000020)  returns 0x00 (0000ms, 1009ms total)
T1B08 001:089 JLINK_WriteReg(XPSR, 0x01000000)  returns 0x00 (0000ms, 1009ms total)
T1B08 001:089 JLINK_WriteReg(MSP, 0x20000800)  returns 0x00 (0000ms, 1009ms total)
T1B08 001:089 JLINK_WriteReg(PSP, 0x20000800)  returns 0x00 (0000ms, 1009ms total)
T1B08 001:089 JLINK_WriteReg(CFBP, 0x00000000)  returns 0x00 (0000ms, 1009ms total)
T1B08 001:089 JLINK_SetBPEx(Addr = 0x20000000, Type = 0xFFFFFFF2) -- CPU_ReadMem(2 bytes @ 0x20000000)  returns 0x00000001 (0001ms, 1009ms total)
T1B08 001:090 JLINK_Go() -- CPU_WriteMem(2 bytes @ 0x20000000) -- CPU_WriteMem(4 bytes @ 0xE0002008) -- CPU_WriteMem(4 bytes @ 0xE000200C) -- CPU_WriteMem(4 bytes @ 0xE0002010) -- CPU_WriteMem(4 bytes @ 0xE0002014) -- CPU_WriteMem(4 bytes @ 0xE0002018) -- CPU_WriteMem(4 bytes @ 0xE000201C) (0010ms, 1010ms total)
T1B08 001:100 JLINK_IsHalted() -- CPU_ReadMem(2 bytes @ 0x20000000)  returns TRUE (0007ms, 1020ms total)
T1B08 001:107 JLINK_ReadReg(R15)  returns 0x20000000 (0000ms, 1020ms total)
T1B08 001:107 JLINK_ClrBPEx(BPHandle = 0x00000001)  returns 0x00 (0000ms, 1020ms total)
T1B08 001:107 JLINK_ReadReg(R0)  returns 0x00000000 (0000ms, 1020ms total)
T1B08 001:107 JLINK_WriteReg(R0, 0x08000000)  returns 0x00 (0000ms, 1020ms total)
T1B08 001:107 JLINK_WriteReg(R1, 0x00000100)  returns 0x00 (0000ms, 1020ms total)
T1B08 001:107 JLINK_WriteReg(R2, 0x00000000)  returns 0x00 (0000ms, 1020ms total)
T1B08 001:107 JLINK_WriteReg(R3, 0x00000000)  returns 0x00 (0000ms, 1020ms total)
T1B08 001:107 JLINK_WriteReg(R4, 0x00000000)  returns 0x00 (0000ms, 1020ms total)
T1B08 001:107 JLINK_WriteReg(R5, 0x00000000)  returns 0x00 (0000ms, 1020ms total)
T1B08 001:107 JLINK_WriteReg(R6, 0x00000000)  returns 0x00 (0000ms, 1020ms total)
T1B08 001:107 JLINK_WriteReg(R7, 0x00000000)  returns 0x00 (0000ms, 1020ms total)
T1B08 001:107 JLINK_WriteReg(R8, 0x00000000)  returns 0x00 (0000ms, 1020ms total)
T1B08 001:107 JLINK_WriteReg(R9, 0x2000024C)  returns 0x00 (0000ms, 1020ms total)
T1B08 001:107 JLINK_WriteReg(R10, 0x00000000)  returns 0x00 (0000ms, 1020ms total)
T1B08 001:107 JLINK_WriteReg(R11, 0x00000000)  returns 0x00 (0000ms, 1020ms total)
T1B08 001:107 JLINK_WriteReg(R12, 0x00000000)  returns 0x00 (0000ms, 1020ms total)
T1B08 001:107 JLINK_WriteReg(R13, 0x20000800)  returns 0x00 (0000ms, 1020ms total)
T1B08 001:107 JLINK_WriteReg(R14, 0x20000001)  returns 0x00 (0000ms, 1020ms total)
T1B08 001:107 JLINK_WriteReg(R15, 0x20000108)  returns 0x00 (0000ms, 1020ms total)
T1B08 001:107 JLINK_WriteReg(XPSR, 0x01000000)  returns 0x00 (0000ms, 1020ms total)
T1B08 001:107 JLINK_WriteReg(MSP, 0x20000800)  returns 0x00 (0000ms, 1020ms total)
T1B08 001:107 JLINK_WriteReg(PSP, 0x20000800)  returns 0x00 (0000ms, 1020ms total)
T1B08 001:107 JLINK_WriteReg(CFBP, 0x00000000)  returns 0x00 (0000ms, 1020ms total)
T1B08 001:107 JLINK_SetBPEx(Addr = 0x20000000, Type = 0xFFFFFFF2)  returns 0x00000002 (0000ms, 1020ms total)
T1B08 001:107 JLINK_Go() -- CPU_WriteMem(4 bytes @ 0xE0002008) -- CPU_WriteMem(4 bytes @ 0xE000200C) -- CPU_WriteMem(4 bytes @ 0xE0002010) -- CPU_WriteMem(4 bytes @ 0xE0002014) -- CPU_WriteMem(4 bytes @ 0xE0002018) -- CPU_WriteMem(4 bytes @ 0xE000201C) (0009ms, 1020ms total)
T1B08 001:116 JLINK_IsHalted() -- CPU_ReadMem(2 bytes @ 0x20000000)  returns TRUE (0007ms, 1029ms total)
T1B08 001:123 JLINK_ReadReg(R15)  returns 0x20000000 (0000ms, 1029ms total)
T1B08 001:123 JLINK_ClrBPEx(BPHandle = 0x00000002)  returns 0x00 (0000ms, 1029ms total)
T1B08 001:123 JLINK_ReadReg(R0)  returns 0x00000001 (0000ms, 1029ms total)
T1B08 001:123 JLINK_WriteReg(R0, 0x08000000)  returns 0x00 (0000ms, 1029ms total)
T1B08 001:123 JLINK_WriteReg(R1, 0x00000100)  returns 0x00 (0000ms, 1029ms total)
T1B08 001:123 JLINK_WriteReg(R2, 0x00000000)  returns 0x00 (0000ms, 1029ms total)
T1B08 001:123 JLINK_WriteReg(R3, 0x00000000)  returns 0x00 (0000ms, 1029ms total)
T1B08 001:123 JLINK_WriteReg(R4, 0x00000000)  returns 0x00 (0000ms, 1029ms total)
T1B08 001:123 JLINK_WriteReg(R5, 0x00000000)  returns 0x00 (0000ms, 1029ms total)
T1B08 001:123 JLINK_WriteReg(R6, 0x00000000)  returns 0x00 (0000ms, 1029ms total)
T1B08 001:123 JLINK_WriteReg(R7, 0x00000000)  returns 0x00 (0000ms, 1029ms total)
T1B08 001:123 JLINK_WriteReg(R8, 0x00000000)  returns 0x00 (0000ms, 1029ms total)
T1B08 001:123 JLINK_WriteReg(R9, 0x2000024C)  returns 0x00 (0000ms, 1029ms total)
T1B08 001:123 JLINK_WriteReg(R10, 0x00000000)  returns 0x00 (0000ms, 1029ms total)
T1B08 001:123 JLINK_WriteReg(R11, 0x00000000)  returns 0x00 (0000ms, 1029ms total)
T1B08 001:123 JLINK_WriteReg(R12, 0x00000000)  returns 0x00 (0000ms, 1029ms total)
T1B08 001:123 JLINK_WriteReg(R13, 0x20000800)  returns 0x00 (0000ms, 1029ms total)
T1B08 001:123 JLINK_WriteReg(R14, 0x20000001)  returns 0x00 (0000ms, 1029ms total)
T1B08 001:123 JLINK_WriteReg(R15, 0x200000AE)  returns 0x00 (0000ms, 1029ms total)
T1B08 001:123 JLINK_WriteReg(XPSR, 0x01000000)  returns 0x00 (0000ms, 1029ms total)
T1B08 001:123 JLINK_WriteReg(MSP, 0x20000800)  returns 0x00 (0000ms, 1029ms total)
T1B08 001:123 JLINK_WriteReg(PSP, 0x20000800)  returns 0x00 (0000ms, 1029ms total)
T1B08 001:123 JLINK_WriteReg(CFBP, 0x00000000)  returns 0x00 (0000ms, 1029ms total)
T1B08 001:123 JLINK_SetBPEx(Addr = 0x20000000, Type = 0xFFFFFFF2)  returns 0x00000003 (0000ms, 1029ms total)
T1B08 001:123 JLINK_Go() -- CPU_WriteMem(4 bytes @ 0xE0002008) -- CPU_WriteMem(4 bytes @ 0xE000200C) -- CPU_WriteMem(4 bytes @ 0xE0002010) -- CPU_WriteMem(4 bytes @ 0xE0002014) -- CPU_WriteMem(4 bytes @ 0xE0002018) -- CPU_WriteMem(4 bytes @ 0xE000201C) (0009ms, 1029ms total)
T1B08 001:132 JLINK_IsHalted()  returns FALSE (0001ms, 1038ms total)
T1B08 001:183 JLINK_IsHalted() -- CPU_ReadMem(2 bytes @ 0x20000000)  returns TRUE (0007ms, 1038ms total)
T1B08 001:190 JLINK_ReadReg(R15)  returns 0x20000000 (0000ms, 1038ms total)
T1B08 001:190 JLINK_ClrBPEx(BPHandle = 0x00000003)  returns 0x00 (0000ms, 1038ms total)
T1B08 001:190 JLINK_ReadReg(R0)  returns 0x00000000 (0000ms, 1038ms total)
T1B08 001:191 JLINK_WriteReg(R0, 0x08000100)  returns 0x00 (0000ms, 1038ms total)
T1B08 001:191 JLINK_WriteReg(R1, 0x00000100)  returns 0x00 (0000ms, 1038ms total)
T1B08 001:191 JLINK_WriteReg(R2, 0x00000000)  returns 0x00 (0000ms, 1038ms total)
T1B08 001:191 JLINK_WriteReg(R3, 0x00000000)  returns 0x00 (0000ms, 1038ms total)
T1B08 001:191 JLINK_WriteReg(R4, 0x00000000)  returns 0x00 (0000ms, 1038ms total)
T1B08 001:191 JLINK_WriteReg(R5, 0x00000000)  returns 0x00 (0000ms, 1038ms total)
T1B08 001:191 JLINK_WriteReg(R6, 0x00000000)  returns 0x00 (0000ms, 1038ms total)
T1B08 001:191 JLINK_WriteReg(R7, 0x00000000)  returns 0x00 (0000ms, 1038ms total)
T1B08 001:191 JLINK_WriteReg(R8, 0x00000000)  returns 0x00 (0000ms, 1038ms total)
T1B08 001:191 JLINK_WriteReg(R9, 0x2000024C)  returns 0x00 (0000ms, 1038ms total)
T1B08 001:191 JLINK_WriteReg(R10, 0x00000000)  returns 0x00 (0000ms, 1038ms total)
T1B08 001:191 JLINK_WriteReg(R11, 0x00000000)  returns 0x00 (0000ms, 1038ms total)
T1B08 001:191 JLINK_WriteReg(R12, 0x00000000)  returns 0x00 (0000ms, 1038ms total)
T1B08 001:191 JLINK_WriteReg(R13, 0x20000800)  returns 0x00 (0000ms, 1038ms total)
T1B08 001:191 JLINK_WriteReg(R14, 0x20000001)  returns 0x00 (0000ms, 1038ms total)
T1B08 001:191 JLINK_WriteReg(R15, 0x20000108)  returns 0x00 (0001ms, 1038ms total)
T1B08 001:192 JLINK_WriteReg(XPSR, 0x01000000)  returns 0x00 (0000ms, 1039ms total)
T1B08 001:192 JLINK_WriteReg(MSP, 0x20000800)  returns 0x00 (0000ms, 1039ms total)
T1B08 001:192 JLINK_WriteReg(PSP, 0x20000800)  returns 0x00 (0000ms, 1039ms total)
T1B08 001:192 JLINK_WriteReg(CFBP, 0x00000000)  returns 0x00 (0000ms, 1039ms total)
T1B08 001:192 JLINK_SetBPEx(Addr = 0x20000000, Type = 0xFFFFFFF2)  returns 0x00000004 (0000ms, 1039ms total)
T1B08 001:192 JLINK_Go() -- CPU_WriteMem(4 bytes @ 0xE0002008) -- CPU_WriteMem(4 bytes @ 0xE000200C) -- CPU_WriteMem(4 bytes @ 0xE0002010) -- CPU_WriteMem(4 bytes @ 0xE0002014) -- CPU_WriteMem(4 bytes @ 0xE0002018) -- CPU_WriteMem(4 bytes @ 0xE000201C) (0008ms, 1039ms total)
T1B08 001:200 JLINK_IsHalted() -- CPU_ReadMem(2 bytes @ 0x20000000)  returns TRUE (0007ms, 1047ms total)
T1B08 001:207 JLINK_ReadReg(R15)  returns 0x20000000 (0000ms, 1047ms total)
T1B08 001:207 JLINK_ClrBPEx(BPHandle = 0x00000004)  returns 0x00 (0000ms, 1047ms total)
T1B08 001:207 JLINK_ReadReg(R0)  returns 0x00000001 (0000ms, 1047ms total)
T1B08 001:207 JLINK_WriteReg(R0, 0x08000100)  returns 0x00 (0000ms, 1047ms total)
T1B08 001:207 JLINK_WriteReg(R1, 0x00000100)  returns 0x00 (0000ms, 1047ms total)
T1B08 001:207 JLINK_WriteReg(R2, 0x00000000)  returns 0x00 (0000ms, 1047ms total)
T1B08 001:207 JLINK_WriteReg(R3, 0x00000000)  returns 0x00 (0000ms, 1047ms total)
T1B08 001:207 JLINK_WriteReg(R4, 0x00000000)  returns 0x00 (0000ms, 1047ms total)
T1B08 001:207 JLINK_WriteReg(R5, 0x00000000)  returns 0x00 (0000ms, 1047ms total)
T1B08 001:207 JLINK_WriteReg(R6, 0x00000000)  returns 0x00 (0001ms, 1047ms total)
T1B08 001:208 JLINK_WriteReg(R7, 0x00000000)  returns 0x00 (0000ms, 1048ms total)
T1B08 001:208 JLINK_WriteReg(R8, 0x00000000)  returns 0x00 (0000ms, 1048ms total)
T1B08 001:208 JLINK_WriteReg(R9, 0x2000024C)  returns 0x00 (0000ms, 1048ms total)
T1B08 001:208 JLINK_WriteReg(R10, 0x00000000)  returns 0x00 (0000ms, 1048ms total)
T1B08 001:208 JLINK_WriteReg(R11, 0x00000000)  returns 0x00 (0000ms, 1048ms total)
T1B08 001:208 JLINK_WriteReg(R12, 0x00000000)  returns 0x00 (0000ms, 1048ms total)
T1B08 001:208 JLINK_WriteReg(R13, 0x20000800)  returns 0x00 (0000ms, 1048ms total)
T1B08 001:208 JLINK_WriteReg(R14, 0x20000001)  returns 0x00 (0000ms, 1048ms total)
T1B08 001:208 JLINK_WriteReg(R15, 0x200000AE)  returns 0x00 (0000ms, 1048ms total)
T1B08 001:208 JLINK_WriteReg(XPSR, 0x01000000)  returns 0x00 (0000ms, 1048ms total)
T1B08 001:208 JLINK_WriteReg(MSP, 0x20000800)  returns 0x00 (0000ms, 1048ms total)
T1B08 001:208 JLINK_WriteReg(PSP, 0x20000800)  returns 0x00 (0000ms, 1048ms total)
T1B08 001:208 JLINK_WriteReg(CFBP, 0x00000000)  returns 0x00 (0000ms, 1048ms total)
T1B08 001:208 JLINK_SetBPEx(Addr = 0x20000000, Type = 0xFFFFFFF2)  returns 0x00000005 (0000ms, 1048ms total)
T1B08 001:208 JLINK_Go() -- CPU_WriteMem(4 bytes @ 0xE0002008) -- CPU_WriteMem(4 bytes @ 0xE000200C) -- CPU_WriteMem(4 bytes @ 0xE0002010) -- CPU_WriteMem(4 bytes @ 0xE0002014) -- CPU_WriteMem(4 bytes @ 0xE0002018) -- CPU_WriteMem(4 bytes @ 0xE000201C) (0008ms, 1048ms total)
T1B08 001:216 JLINK_IsHalted()  returns FALSE (0001ms, 1056ms total)
T1B08 001:267 JLINK_IsHalted() -- CPU_ReadMem(2 bytes @ 0x20000000)  returns TRUE (0007ms, 1056ms total)
T1B08 001:274 JLINK_ReadReg(R15)  returns 0x20000000 (0000ms, 1056ms total)
T1B08 001:274 JLINK_ClrBPEx(BPHandle = 0x00000005)  returns 0x00 (0000ms, 1056ms total)
T1B08 001:274 JLINK_ReadReg(R0)  returns 0x00000000 (0000ms, 1056ms total)
T1B08 001:275 JLINK_WriteReg(R0, 0x08000200)  returns 0x00 (0000ms, 1056ms total)
T1B08 001:275 JLINK_WriteReg(R1, 0x00000100)  returns 0x00 (0000ms, 1056ms total)
T1B08 001:275 JLINK_WriteReg(R2, 0x00000000)  returns 0x00 (0000ms, 1056ms total)
T1B08 001:275 JLINK_WriteReg(R3, 0x00000000)  returns 0x00 (0000ms, 1056ms total)
T1B08 001:275 JLINK_WriteReg(R4, 0x00000000)  returns 0x00 (0000ms, 1056ms total)
T1B08 001:275 JLINK_WriteReg(R5, 0x00000000)  returns 0x00 (0000ms, 1056ms total)
T1B08 001:275 JLINK_WriteReg(R6, 0x00000000)  returns 0x00 (0000ms, 1056ms total)
T1B08 001:275 JLINK_WriteReg(R7, 0x00000000)  returns 0x00 (0000ms, 1056ms total)
T1B08 001:275 JLINK_WriteReg(R8, 0x00000000)  returns 0x00 (0000ms, 1056ms total)
T1B08 001:275 JLINK_WriteReg(R9, 0x2000024C)  returns 0x00 (0000ms, 1056ms total)
T1B08 001:275 JLINK_WriteReg(R10, 0x00000000)  returns 0x00 (0000ms, 1056ms total)
T1B08 001:275 JLINK_WriteReg(R11, 0x00000000)  returns 0x00 (0000ms, 1056ms total)
T1B08 001:275 JLINK_WriteReg(R12, 0x00000000)  returns 0x00 (0000ms, 1056ms total)
T1B08 001:275 JLINK_WriteReg(R13, 0x20000800)  returns 0x00 (0000ms, 1056ms total)
T1B08 001:275 JLINK_WriteReg(R14, 0x20000001)  returns 0x00 (0000ms, 1056ms total)
T1B08 001:275 JLINK_WriteReg(R15, 0x20000108)  returns 0x00 (0000ms, 1056ms total)
T1B08 001:275 JLINK_WriteReg(XPSR, 0x01000000)  returns 0x00 (0000ms, 1056ms total)
T1B08 001:275 JLINK_WriteReg(MSP, 0x20000800)  returns 0x00 (0000ms, 1056ms total)
T1B08 001:275 JLINK_WriteReg(PSP, 0x20000800)  returns 0x00 (0000ms, 1056ms total)
T1B08 001:275 JLINK_WriteReg(CFBP, 0x00000000)  returns 0x00 (0000ms, 1056ms total)
T1B08 001:276 JLINK_SetBPEx(Addr = 0x20000000, Type = 0xFFFFFFF2)  returns 0x00000006 (0000ms, 1057ms total)
T1B08 001:276 JLINK_Go() -- CPU_WriteMem(4 bytes @ 0xE0002008) -- CPU_WriteMem(4 bytes @ 0xE000200C) -- CPU_WriteMem(4 bytes @ 0xE0002010) -- CPU_WriteMem(4 bytes @ 0xE0002014) -- CPU_WriteMem(4 bytes @ 0xE0002018) -- CPU_WriteMem(4 bytes @ 0xE000201C) (0008ms, 1057ms total)
T1B08 001:284 JLINK_IsHalted() -- CPU_ReadMem(2 bytes @ 0x20000000)  returns TRUE (0007ms, 1065ms total)
T1B08 001:291 JLINK_ReadReg(R15)  returns 0x20000000 (0000ms, 1065ms total)
T1B08 001:291 JLINK_ClrBPEx(BPHandle = 0x00000006)  returns 0x00 (0000ms, 1065ms total)
T1B08 001:291 JLINK_ReadReg(R0)  returns 0x00000001 (0000ms, 1065ms total)
T1B08 001:291 JLINK_WriteReg(R0, 0x08000200)  returns 0x00 (0000ms, 1065ms total)
T1B08 001:291 JLINK_WriteReg(R1, 0x00000100)  returns 0x00 (0000ms, 1065ms total)
T1B08 001:291 JLINK_WriteReg(R2, 0x00000000)  returns 0x00 (0000ms, 1065ms total)
T1B08 001:291 JLINK_WriteReg(R3, 0x00000000)  returns 0x00 (0000ms, 1065ms total)
T1B08 001:291 JLINK_WriteReg(R4, 0x00000000)  returns 0x00 (0000ms, 1065ms total)
T1B08 001:291 JLINK_WriteReg(R5, 0x00000000)  returns 0x00 (0000ms, 1065ms total)
T1B08 001:291 JLINK_WriteReg(R6, 0x00000000)  returns 0x00 (0000ms, 1065ms total)
T1B08 001:291 JLINK_WriteReg(R7, 0x00000000)  returns 0x00 (0000ms, 1065ms total)
T1B08 001:291 JLINK_WriteReg(R8, 0x00000000)  returns 0x00 (0000ms, 1065ms total)
T1B08 001:291 JLINK_WriteReg(R9, 0x2000024C)  returns 0x00 (0000ms, 1065ms total)
T1B08 001:291 JLINK_WriteReg(R10, 0x00000000)  returns 0x00 (0000ms, 1065ms total)
T1B08 001:291 JLINK_WriteReg(R11, 0x00000000)  returns 0x00 (0000ms, 1065ms total)
T1B08 001:291 JLINK_WriteReg(R12, 0x00000000)  returns 0x00 (0000ms, 1065ms total)
T1B08 001:291 JLINK_WriteReg(R13, 0x20000800)  returns 0x00 (0001ms, 1065ms total)
T1B08 001:292 JLINK_WriteReg(R14, 0x20000001)  returns 0x00 (0000ms, 1066ms total)
T1B08 001:292 JLINK_WriteReg(R15, 0x200000AE)  returns 0x00 (0000ms, 1066ms total)
T1B08 001:292 JLINK_WriteReg(XPSR, 0x01000000)  returns 0x00 (0000ms, 1066ms total)
T1B08 001:292 JLINK_WriteReg(MSP, 0x20000800)  returns 0x00 (0000ms, 1066ms total)
T1B08 001:292 JLINK_WriteReg(PSP, 0x20000800)  returns 0x00 (0000ms, 1066ms total)
T1B08 001:292 JLINK_WriteReg(CFBP, 0x00000000)  returns 0x00 (0000ms, 1066ms total)
T1B08 001:292 JLINK_SetBPEx(Addr = 0x20000000, Type = 0xFFFFFFF2)  returns 0x00000007 (0000ms, 1066ms total)
T1B08 001:292 JLINK_Go() -- CPU_WriteMem(4 bytes @ 0xE0002008) -- CPU_WriteMem(4 bytes @ 0xE000200C) -- CPU_WriteMem(4 bytes @ 0xE0002010) -- CPU_WriteMem(4 bytes @ 0xE0002014) -- CPU_WriteMem(4 bytes @ 0xE0002018) -- CPU_WriteMem(4 bytes @ 0xE000201C) (0008ms, 1066ms total)
T1B08 001:300 JLINK_IsHalted()  returns FALSE (0001ms, 1074ms total)
T1B08 001:351 JLINK_IsHalted() -- CPU_ReadMem(2 bytes @ 0x20000000)  returns TRUE (0007ms, 1074ms total)
T1B08 001:358 JLINK_ReadReg(R15)  returns 0x20000000 (0000ms, 1074ms total)
T1B08 001:358 JLINK_ClrBPEx(BPHandle = 0x00000007)  returns 0x00 (0000ms, 1074ms total)
T1B08 001:358 JLINK_ReadReg(R0)  returns 0x00000000 (0000ms, 1074ms total)
T1B08 001:359 JLINK_WriteReg(R0, 0x08000300)  returns 0x00 (0000ms, 1074ms total)
T1B08 001:359 JLINK_WriteReg(R1, 0x00000100)  returns 0x00 (0000ms, 1074ms total)
T1B08 001:359 JLINK_WriteReg(R2, 0x00000000)  returns 0x00 (0000ms, 1074ms total)
T1B08 001:359 JLINK_WriteReg(R3, 0x00000000)  returns 0x00 (0000ms, 1074ms total)
T1B08 001:359 JLINK_WriteReg(R4, 0x00000000)  returns 0x00 (0000ms, 1074ms total)
T1B08 001:359 JLINK_WriteReg(R5, 0x00000000)  returns 0x00 (0000ms, 1074ms total)
T1B08 001:359 JLINK_WriteReg(R6, 0x00000000)  returns 0x00 (0000ms, 1074ms total)
T1B08 001:359 JLINK_WriteReg(R7, 0x00000000)  returns 0x00 (0000ms, 1074ms total)
T1B08 001:359 JLINK_WriteReg(R8, 0x00000000)  returns 0x00 (0000ms, 1074ms total)
T1B08 001:359 JLINK_WriteReg(R9, 0x2000024C)  returns 0x00 (0000ms, 1074ms total)
T1B08 001:359 JLINK_WriteReg(R10, 0x00000000)  returns 0x00 (0000ms, 1074ms total)
T1B08 001:359 JLINK_WriteReg(R11, 0x00000000)  returns 0x00 (0000ms, 1074ms total)
T1B08 001:359 JLINK_WriteReg(R12, 0x00000000)  returns 0x00 (0000ms, 1074ms total)
T1B08 001:360 JLINK_WriteReg(R13, 0x20000800)  returns 0x00 (0000ms, 1075ms total)
T1B08 001:360 JLINK_WriteReg(R14, 0x20000001)  returns 0x00 (0000ms, 1075ms total)
T1B08 001:360 JLINK_WriteReg(R15, 0x20000108)  returns 0x00 (0000ms, 1075ms total)
T1B08 001:360 JLINK_WriteReg(XPSR, 0x01000000)  returns 0x00 (0000ms, 1075ms total)
T1B08 001:360 JLINK_WriteReg(MSP, 0x20000800)  returns 0x00 (0000ms, 1075ms total)
T1B08 001:360 JLINK_WriteReg(PSP, 0x20000800)  returns 0x00 (0000ms, 1075ms total)
T1B08 001:360 JLINK_WriteReg(CFBP, 0x00000000)  returns 0x00 (0000ms, 1075ms total)
T1B08 001:360 JLINK_SetBPEx(Addr = 0x20000000, Type = 0xFFFFFFF2)  returns 0x00000008 (0000ms, 1075ms total)
T1B08 001:360 JLINK_Go() -- CPU_WriteMem(4 bytes @ 0xE0002008) -- CPU_WriteMem(4 bytes @ 0xE000200C) -- CPU_WriteMem(4 bytes @ 0xE0002010) -- CPU_WriteMem(4 bytes @ 0xE0002014) -- CPU_WriteMem(4 bytes @ 0xE0002018) -- CPU_WriteMem(4 bytes @ 0xE000201C) (0008ms, 1075ms total)
T1B08 001:368 JLINK_IsHalted() -- CPU_ReadMem(2 bytes @ 0x20000000)  returns TRUE (0007ms, 1083ms total)
T1B08 001:375 JLINK_ReadReg(R15)  returns 0x20000000 (0000ms, 1083ms total)
T1B08 001:375 JLINK_ClrBPEx(BPHandle = 0x00000008)  returns 0x00 (0000ms, 1083ms total)
T1B08 001:375 JLINK_ReadReg(R0)  returns 0x00000001 (0000ms, 1083ms total)
T1B08 001:375 JLINK_WriteReg(R0, 0x08000300)  returns 0x00 (0000ms, 1083ms total)
T1B08 001:375 JLINK_WriteReg(R1, 0x00000100)  returns 0x00 (0000ms, 1083ms total)
T1B08 001:375 JLINK_WriteReg(R2, 0x00000000)  returns 0x00 (0000ms, 1083ms total)
T1B08 001:375 JLINK_WriteReg(R3, 0x00000000)  returns 0x00 (0000ms, 1083ms total)
T1B08 001:375 JLINK_WriteReg(R4, 0x00000000)  returns 0x00 (0001ms, 1083ms total)
T1B08 001:376 JLINK_WriteReg(R5, 0x00000000)  returns 0x00 (0000ms, 1084ms total)
T1B08 001:376 JLINK_WriteReg(R6, 0x00000000)  returns 0x00 (0000ms, 1084ms total)
T1B08 001:376 JLINK_WriteReg(R7, 0x00000000)  returns 0x00 (0000ms, 1084ms total)
T1B08 001:376 JLINK_WriteReg(R8, 0x00000000)  returns 0x00 (0000ms, 1084ms total)
T1B08 001:376 JLINK_WriteReg(R9, 0x2000024C)  returns 0x00 (0000ms, 1084ms total)
T1B08 001:376 JLINK_WriteReg(R10, 0x00000000)  returns 0x00 (0000ms, 1084ms total)
T1B08 001:376 JLINK_WriteReg(R11, 0x00000000)  returns 0x00 (0000ms, 1084ms total)
T1B08 001:376 JLINK_WriteReg(R12, 0x00000000)  returns 0x00 (0000ms, 1084ms total)
T1B08 001:376 JLINK_WriteReg(R13, 0x20000800)  returns 0x00 (0000ms, 1084ms total)
T1B08 001:376 JLINK_WriteReg(R14, 0x20000001)  returns 0x00 (0000ms, 1084ms total)
T1B08 001:376 JLINK_WriteReg(R15, 0x200000AE)  returns 0x00 (0000ms, 1084ms total)
T1B08 001:376 JLINK_WriteReg(XPSR, 0x01000000)  returns 0x00 (0000ms, 1084ms total)
T1B08 001:376 JLINK_WriteReg(MSP, 0x20000800)  returns 0x00 (0000ms, 1084ms total)
T1B08 001:376 JLINK_WriteReg(PSP, 0x20000800)  returns 0x00 (0000ms, 1084ms total)
T1B08 001:376 JLINK_WriteReg(CFBP, 0x00000000)  returns 0x00 (0000ms, 1084ms total)
T1B08 001:376 JLINK_SetBPEx(Addr = 0x20000000, Type = 0xFFFFFFF2)  returns 0x00000009 (0000ms, 1084ms total)
T1B08 001:376 JLINK_Go() -- CPU_WriteMem(4 bytes @ 0xE0002008) -- CPU_WriteMem(4 bytes @ 0xE000200C) -- CPU_WriteMem(4 bytes @ 0xE0002010) -- CPU_WriteMem(4 bytes @ 0xE0002014) -- CPU_WriteMem(4 bytes @ 0xE0002018) -- CPU_WriteMem(4 bytes @ 0xE000201C) (0008ms, 1084ms total)
T1B08 001:384 JLINK_IsHalted()  returns FALSE (0001ms, 1092ms total)
T1B08 001:435 JLINK_IsHalted() -- CPU_ReadMem(2 bytes @ 0x20000000)  returns TRUE (0007ms, 1092ms total)
T1B08 001:442 JLINK_ReadReg(R15)  returns 0x20000000 (0000ms, 1092ms total)
T1B08 001:442 JLINK_ClrBPEx(BPHandle = 0x00000009)  returns 0x00 (0000ms, 1092ms total)
T1B08 001:442 JLINK_ReadReg(R0)  returns 0x00000000 (0000ms, 1092ms total)
T1B08 001:443 JLINK_WriteReg(R0, 0x08000400)  returns 0x00 (0000ms, 1092ms total)
T1B08 001:443 JLINK_WriteReg(R1, 0x00000100)  returns 0x00 (0000ms, 1092ms total)
T1B08 001:443 JLINK_WriteReg(R2, 0x00000000)  returns 0x00 (0000ms, 1092ms total)
T1B08 001:443 JLINK_WriteReg(R3, 0x00000000)  returns 0x00 (0000ms, 1092ms total)
T1B08 001:443 JLINK_WriteReg(R4, 0x00000000)  returns 0x00 (0000ms, 1092ms total)
T1B08 001:443 JLINK_WriteReg(R5, 0x00000000)  returns 0x00 (0001ms, 1092ms total)
T1B08 001:444 JLINK_WriteReg(R6, 0x00000000)  returns 0x00 (0000ms, 1093ms total)
T1B08 001:444 JLINK_WriteReg(R7, 0x00000000)  returns 0x00 (0000ms, 1093ms total)
T1B08 001:444 JLINK_WriteReg(R8, 0x00000000)  returns 0x00 (0000ms, 1093ms total)
T1B08 001:444 JLINK_WriteReg(R9, 0x2000024C)  returns 0x00 (0000ms, 1093ms total)
T1B08 001:444 JLINK_WriteReg(R10, 0x00000000)  returns 0x00 (0000ms, 1093ms total)
T1B08 001:444 JLINK_WriteReg(R11, 0x00000000)  returns 0x00 (0000ms, 1093ms total)
T1B08 001:444 JLINK_WriteReg(R12, 0x00000000)  returns 0x00 (0000ms, 1093ms total)
T1B08 001:444 JLINK_WriteReg(R13, 0x20000800)  returns 0x00 (0000ms, 1093ms total)
T1B08 001:444 JLINK_WriteReg(R14, 0x20000001)  returns 0x00 (0000ms, 1093ms total)
T1B08 001:444 JLINK_WriteReg(R15, 0x20000108)  returns 0x00 (0000ms, 1093ms total)
T1B08 001:444 JLINK_WriteReg(XPSR, 0x01000000)  returns 0x00 (0000ms, 1093ms total)
T1B08 001:444 JLINK_WriteReg(MSP, 0x20000800)  returns 0x00 (0000ms, 1093ms total)
T1B08 001:444 JLINK_WriteReg(PSP, 0x20000800)  returns 0x00 (0000ms, 1093ms total)
T1B08 001:444 JLINK_WriteReg(CFBP, 0x00000000)  returns 0x00 (0000ms, 1093ms total)
T1B08 001:444 JLINK_SetBPEx(Addr = 0x20000000, Type = 0xFFFFFFF2)  returns 0x0000000A (0000ms, 1093ms total)
T1B08 001:444 JLINK_Go() -- CPU_WriteMem(4 bytes @ 0xE0002008) -- CPU_WriteMem(4 bytes @ 0xE000200C) -- CPU_WriteMem(4 bytes @ 0xE0002010) -- CPU_WriteMem(4 bytes @ 0xE0002014) -- CPU_WriteMem(4 bytes @ 0xE0002018) -- CPU_WriteMem(4 bytes @ 0xE000201C) (0008ms, 1093ms total)
T1B08 001:452 JLINK_IsHalted() -- CPU_ReadMem(2 bytes @ 0x20000000)  returns TRUE (0008ms, 1101ms total)
T1B08 001:460 JLINK_ReadReg(R15)  returns 0x20000000 (0000ms, 1101ms total)
T1B08 001:460 JLINK_ClrBPEx(BPHandle = 0x0000000A)  returns 0x00 (0000ms, 1101ms total)
T1B08 001:460 JLINK_ReadReg(R0)  returns 0x00000001 (0000ms, 1101ms total)
T1B08 001:460 JLINK_WriteReg(R0, 0x08000400)  returns 0x00 (0000ms, 1101ms total)
T1B08 001:460 JLINK_WriteReg(R1, 0x00000100)  returns 0x00 (0000ms, 1101ms total)
T1B08 001:460 JLINK_WriteReg(R2, 0x00000000)  returns 0x00 (0000ms, 1101ms total)
T1B08 001:460 JLINK_WriteReg(R3, 0x00000000)  returns 0x00 (0000ms, 1101ms total)
T1B08 001:460 JLINK_WriteReg(R4, 0x00000000)  returns 0x00 (0000ms, 1101ms total)
T1B08 001:460 JLINK_WriteReg(R5, 0x00000000)  returns 0x00 (0000ms, 1101ms total)
T1B08 001:460 JLINK_WriteReg(R6, 0x00000000)  returns 0x00 (0000ms, 1101ms total)
T1B08 001:460 JLINK_WriteReg(R7, 0x00000000)  returns 0x00 (0000ms, 1101ms total)
T1B08 001:460 JLINK_WriteReg(R8, 0x00000000)  returns 0x00 (0000ms, 1101ms total)
T1B08 001:460 JLINK_WriteReg(R9, 0x2000024C)  returns 0x00 (0000ms, 1101ms total)
T1B08 001:460 JLINK_WriteReg(R10, 0x00000000)  returns 0x00 (0000ms, 1101ms total)
T1B08 001:460 JLINK_WriteReg(R11, 0x00000000)  returns 0x00 (0000ms, 1101ms total)
T1B08 001:460 JLINK_WriteReg(R12, 0x00000000)  returns 0x00 (0000ms, 1101ms total)
T1B08 001:460 JLINK_WriteReg(R13, 0x20000800)  returns 0x00 (0000ms, 1101ms total)
T1B08 001:460 JLINK_WriteReg(R14, 0x20000001)  returns 0x00 (0000ms, 1101ms total)
T1B08 001:460 JLINK_WriteReg(R15, 0x200000AE)  returns 0x00 (0000ms, 1101ms total)
T1B08 001:460 JLINK_WriteReg(XPSR, 0x01000000)  returns 0x00 (0000ms, 1101ms total)
T1B08 001:460 JLINK_WriteReg(MSP, 0x20000800)  returns 0x00 (0000ms, 1101ms total)
T1B08 001:460 JLINK_WriteReg(PSP, 0x20000800)  returns 0x00 (0000ms, 1101ms total)
T1B08 001:460 JLINK_WriteReg(CFBP, 0x00000000)  returns 0x00 (0000ms, 1101ms total)
T1B08 001:460 JLINK_SetBPEx(Addr = 0x20000000, Type = 0xFFFFFFF2)  returns 0x0000000B (0000ms, 1101ms total)
T1B08 001:460 JLINK_Go() -- CPU_WriteMem(4 bytes @ 0xE0002008) -- CPU_WriteMem(4 bytes @ 0xE000200C) -- CPU_WriteMem(4 bytes @ 0xE0002010) -- CPU_WriteMem(4 bytes @ 0xE0002014) -- CPU_WriteMem(4 bytes @ 0xE0002018) -- CPU_WriteMem(4 bytes @ 0xE000201C) (0009ms, 1101ms total)
T1B08 001:469 JLINK_IsHalted()  returns FALSE (0001ms, 1110ms total)
T1B08 001:520 JLINK_IsHalted() -- CPU_ReadMem(2 bytes @ 0x20000000)  returns TRUE (0007ms, 1110ms total)
T1B08 001:527 JLINK_ReadReg(R15)  returns 0x20000000 (0000ms, 1110ms total)
T1B08 001:527 JLINK_ClrBPEx(BPHandle = 0x0000000B)  returns 0x00 (0000ms, 1110ms total)
T1B08 001:527 JLINK_ReadReg(R0)  returns 0x00000000 (0000ms, 1110ms total)
T1B08 001:528 JLINK_WriteReg(R0, 0x08000500)  returns 0x00 (0000ms, 1110ms total)
T1B08 001:528 JLINK_WriteReg(R1, 0x00000100)  returns 0x00 (0000ms, 1110ms total)
T1B08 001:528 JLINK_WriteReg(R2, 0x00000000)  returns 0x00 (0000ms, 1110ms total)
T1B08 001:528 JLINK_WriteReg(R3, 0x00000000)  returns 0x00 (0000ms, 1110ms total)
T1B08 001:528 JLINK_WriteReg(R4, 0x00000000)  returns 0x00 (0000ms, 1110ms total)
T1B08 001:528 JLINK_WriteReg(R5, 0x00000000)  returns 0x00 (0000ms, 1110ms total)
T1B08 001:528 JLINK_WriteReg(R6, 0x00000000)  returns 0x00 (0000ms, 1110ms total)
T1B08 001:528 JLINK_WriteReg(R7, 0x00000000)  returns 0x00 (0000ms, 1110ms total)
T1B08 001:528 JLINK_WriteReg(R8, 0x00000000)  returns 0x00 (0000ms, 1110ms total)
T1B08 001:528 JLINK_WriteReg(R9, 0x2000024C)  returns 0x00 (0000ms, 1110ms total)
T1B08 001:528 JLINK_WriteReg(R10, 0x00000000)  returns 0x00 (0000ms, 1110ms total)
T1B08 001:528 JLINK_WriteReg(R11, 0x00000000)  returns 0x00 (0000ms, 1110ms total)
T1B08 001:529 JLINK_WriteReg(R12, 0x00000000)  returns 0x00 (0000ms, 1110ms total)
T1B08 001:529 JLINK_WriteReg(R13, 0x20000800)  returns 0x00 (0000ms, 1110ms total)
T1B08 001:529 JLINK_WriteReg(R14, 0x20000001)  returns 0x00 (0000ms, 1110ms total)
T1B08 001:529 JLINK_WriteReg(R15, 0x20000108)  returns 0x00 (0000ms, 1110ms total)
T1B08 001:529 JLINK_WriteReg(XPSR, 0x01000000)  returns 0x00 (0000ms, 1110ms total)
T1B08 001:529 JLINK_WriteReg(MSP, 0x20000800)  returns 0x00 (0000ms, 1110ms total)
T1B08 001:529 JLINK_WriteReg(PSP, 0x20000800)  returns 0x00 (0000ms, 1110ms total)
T1B08 001:529 JLINK_WriteReg(CFBP, 0x00000000)  returns 0x00 (0000ms, 1110ms total)
T1B08 001:529 JLINK_SetBPEx(Addr = 0x20000000, Type = 0xFFFFFFF2)  returns 0x0000000C (0000ms, 1110ms total)
T1B08 001:529 JLINK_Go() -- CPU_WriteMem(4 bytes @ 0xE0002008) -- CPU_WriteMem(4 bytes @ 0xE000200C) -- CPU_WriteMem(4 bytes @ 0xE0002010) -- CPU_WriteMem(4 bytes @ 0xE0002014) -- CPU_WriteMem(4 bytes @ 0xE0002018) -- CPU_WriteMem(4 bytes @ 0xE000201C) (0008ms, 1110ms total)
T1B08 001:537 JLINK_IsHalted() -- CPU_ReadMem(2 bytes @ 0x20000000)  returns TRUE (0007ms, 1118ms total)
T1B08 001:544 JLINK_ReadReg(R15)  returns 0x20000000 (0000ms, 1118ms total)
T1B08 001:544 JLINK_ClrBPEx(BPHandle = 0x0000000C)  returns 0x00 (0000ms, 1118ms total)
T1B08 001:544 JLINK_ReadReg(R0)  returns 0x00000001 (0000ms, 1118ms total)
T1B08 001:544 JLINK_WriteReg(R0, 0x08000500)  returns 0x00 (0000ms, 1118ms total)
T1B08 001:544 JLINK_WriteReg(R1, 0x00000100)  returns 0x00 (0000ms, 1118ms total)
T1B08 001:544 JLINK_WriteReg(R2, 0x00000000)  returns 0x00 (0000ms, 1118ms total)
T1B08 001:544 JLINK_WriteReg(R3, 0x00000000)  returns 0x00 (0001ms, 1118ms total)
T1B08 001:545 JLINK_WriteReg(R4, 0x00000000)  returns 0x00 (0000ms, 1119ms total)
T1B08 001:545 JLINK_WriteReg(R5, 0x00000000)  returns 0x00 (0000ms, 1119ms total)
T1B08 001:545 JLINK_WriteReg(R6, 0x00000000)  returns 0x00 (0000ms, 1119ms total)
T1B08 001:545 JLINK_WriteReg(R7, 0x00000000)  returns 0x00 (0000ms, 1119ms total)
T1B08 001:545 JLINK_WriteReg(R8, 0x00000000)  returns 0x00 (0000ms, 1119ms total)
T1B08 001:545 JLINK_WriteReg(R9, 0x2000024C)  returns 0x00 (0000ms, 1119ms total)
T1B08 001:545 JLINK_WriteReg(R10, 0x00000000)  returns 0x00 (0000ms, 1119ms total)
T1B08 001:545 JLINK_WriteReg(R11, 0x00000000)  returns 0x00 (0000ms, 1119ms total)
T1B08 001:545 JLINK_WriteReg(R12, 0x00000000)  returns 0x00 (0000ms, 1119ms total)
T1B08 001:545 JLINK_WriteReg(R13, 0x20000800)  returns 0x00 (0000ms, 1119ms total)
T1B08 001:545 JLINK_WriteReg(R14, 0x20000001)  returns 0x00 (0000ms, 1119ms total)
T1B08 001:545 JLINK_WriteReg(R15, 0x200000AE)  returns 0x00 (0000ms, 1119ms total)
T1B08 001:545 JLINK_WriteReg(XPSR, 0x01000000)  returns 0x00 (0000ms, 1119ms total)
T1B08 001:545 JLINK_WriteReg(MSP, 0x20000800)  returns 0x00 (0000ms, 1119ms total)
T1B08 001:545 JLINK_WriteReg(PSP, 0x20000800)  returns 0x00 (0000ms, 1119ms total)
T1B08 001:545 JLINK_WriteReg(CFBP, 0x00000000)  returns 0x00 (0000ms, 1119ms total)
T1B08 001:545 JLINK_SetBPEx(Addr = 0x20000000, Type = 0xFFFFFFF2)  returns 0x0000000D (0000ms, 1119ms total)
T1B08 001:545 JLINK_Go() -- CPU_WriteMem(4 bytes @ 0xE0002008) -- CPU_WriteMem(4 bytes @ 0xE000200C) -- CPU_WriteMem(4 bytes @ 0xE0002010) -- CPU_WriteMem(4 bytes @ 0xE0002014) -- CPU_WriteMem(4 bytes @ 0xE0002018) -- CPU_WriteMem(4 bytes @ 0xE000201C) (0008ms, 1119ms total)
T1B08 001:553 JLINK_IsHalted()  returns FALSE (0001ms, 1127ms total)
T1B08 001:604 JLINK_IsHalted() -- CPU_ReadMem(2 bytes @ 0x20000000)  returns TRUE (0007ms, 1127ms total)
T1B08 001:611 JLINK_ReadReg(R15)  returns 0x20000000 (0000ms, 1127ms total)
T1B08 001:611 JLINK_ClrBPEx(BPHandle = 0x0000000D)  returns 0x00 (0000ms, 1127ms total)
T1B08 001:611 JLINK_ReadReg(R0)  returns 0x00000000 (0000ms, 1127ms total)
T1B08 001:612 JLINK_WriteReg(R0, 0x08000600)  returns 0x00 (0000ms, 1127ms total)
T1B08 001:612 JLINK_WriteReg(R1, 0x00000100)  returns 0x00 (0000ms, 1127ms total)
T1B08 001:612 JLINK_WriteReg(R2, 0x00000000)  returns 0x00 (0000ms, 1127ms total)
T1B08 001:612 JLINK_WriteReg(R3, 0x00000000)  returns 0x00 (0000ms, 1127ms total)
T1B08 001:612 JLINK_WriteReg(R4, 0x00000000)  returns 0x00 (0000ms, 1127ms total)
T1B08 001:612 JLINK_WriteReg(R5, 0x00000000)  returns 0x00 (0000ms, 1127ms total)
T1B08 001:612 JLINK_WriteReg(R6, 0x00000000)  returns 0x00 (0000ms, 1127ms total)
T1B08 001:612 JLINK_WriteReg(R7, 0x00000000)  returns 0x00 (0000ms, 1127ms total)
T1B08 001:612 JLINK_WriteReg(R8, 0x00000000)  returns 0x00 (0000ms, 1127ms total)
T1B08 001:612 JLINK_WriteReg(R9, 0x2000024C)  returns 0x00 (0000ms, 1127ms total)
T1B08 001:612 JLINK_WriteReg(R10, 0x00000000)  returns 0x00 (0000ms, 1127ms total)
T1B08 001:612 JLINK_WriteReg(R11, 0x00000000)  returns 0x00 (0000ms, 1127ms total)
T1B08 001:612 JLINK_WriteReg(R12, 0x00000000)  returns 0x00 (0000ms, 1127ms total)
T1B08 001:612 JLINK_WriteReg(R13, 0x20000800)  returns 0x00 (0001ms, 1127ms total)
T1B08 001:613 JLINK_WriteReg(R14, 0x20000001)  returns 0x00 (0000ms, 1128ms total)
T1B08 001:613 JLINK_WriteReg(R15, 0x20000108)  returns 0x00 (0000ms, 1128ms total)
T1B08 001:613 JLINK_WriteReg(XPSR, 0x01000000)  returns 0x00 (0000ms, 1128ms total)
T1B08 001:613 JLINK_WriteReg(MSP, 0x20000800)  returns 0x00 (0000ms, 1128ms total)
T1B08 001:613 JLINK_WriteReg(PSP, 0x20000800)  returns 0x00 (0000ms, 1128ms total)
T1B08 001:613 JLINK_WriteReg(CFBP, 0x00000000)  returns 0x00 (0000ms, 1128ms total)
T1B08 001:613 JLINK_SetBPEx(Addr = 0x20000000, Type = 0xFFFFFFF2)  returns 0x0000000E (0000ms, 1128ms total)
T1B08 001:613 JLINK_Go() -- CPU_WriteMem(4 bytes @ 0xE0002008) -- CPU_WriteMem(4 bytes @ 0xE000200C) -- CPU_WriteMem(4 bytes @ 0xE0002010) -- CPU_WriteMem(4 bytes @ 0xE0002014) -- CPU_WriteMem(4 bytes @ 0xE0002018) -- CPU_WriteMem(4 bytes @ 0xE000201C) (0008ms, 1128ms total)
T1B08 001:621 JLINK_IsHalted() -- CPU_ReadMem(2 bytes @ 0x20000000)  returns TRUE (0007ms, 1136ms total)
T1B08 001:628 JLINK_ReadReg(R15)  returns 0x20000000 (0000ms, 1136ms total)
T1B08 001:628 JLINK_ClrBPEx(BPHandle = 0x0000000E)  returns 0x00 (0000ms, 1136ms total)
T1B08 001:628 JLINK_ReadReg(R0)  returns 0x00000001 (0000ms, 1136ms total)
T1B08 001:628 JLINK_WriteReg(R0, 0x08000600)  returns 0x00 (0000ms, 1136ms total)
T1B08 001:628 JLINK_WriteReg(R1, 0x00000100)  returns 0x00 (0000ms, 1136ms total)
T1B08 001:628 JLINK_WriteReg(R2, 0x00000000)  returns 0x00 (0000ms, 1136ms total)
T1B08 001:628 JLINK_WriteReg(R3, 0x00000000)  returns 0x00 (0000ms, 1136ms total)
T1B08 001:628 JLINK_WriteReg(R4, 0x00000000)  returns 0x00 (0000ms, 1136ms total)
T1B08 001:629 JLINK_WriteReg(R5, 0x00000000)  returns 0x00 (0000ms, 1137ms total)
T1B08 001:629 JLINK_WriteReg(R6, 0x00000000)  returns 0x00 (0000ms, 1137ms total)
T1B08 001:629 JLINK_WriteReg(R7, 0x00000000)  returns 0x00 (0000ms, 1137ms total)
T1B08 001:629 JLINK_WriteReg(R8, 0x00000000)  returns 0x00 (0000ms, 1137ms total)
T1B08 001:629 JLINK_WriteReg(R9, 0x2000024C)  returns 0x00 (0000ms, 1137ms total)
T1B08 001:629 JLINK_WriteReg(R10, 0x00000000)  returns 0x00 (0000ms, 1137ms total)
T1B08 001:629 JLINK_WriteReg(R11, 0x00000000)  returns 0x00 (0000ms, 1137ms total)
T1B08 001:629 JLINK_WriteReg(R12, 0x00000000)  returns 0x00 (0000ms, 1137ms total)
T1B08 001:629 JLINK_WriteReg(R13, 0x20000800)  returns 0x00 (0000ms, 1137ms total)
T1B08 001:629 JLINK_WriteReg(R14, 0x20000001)  returns 0x00 (0000ms, 1137ms total)
T1B08 001:629 JLINK_WriteReg(R15, 0x200000AE)  returns 0x00 (0000ms, 1137ms total)
T1B08 001:629 JLINK_WriteReg(XPSR, 0x01000000)  returns 0x00 (0000ms, 1137ms total)
T1B08 001:629 JLINK_WriteReg(MSP, 0x20000800)  returns 0x00 (0000ms, 1137ms total)
T1B08 001:629 JLINK_WriteReg(PSP, 0x20000800)  returns 0x00 (0000ms, 1137ms total)
T1B08 001:629 JLINK_WriteReg(CFBP, 0x00000000)  returns 0x00 (0000ms, 1137ms total)
T1B08 001:629 JLINK_SetBPEx(Addr = 0x20000000, Type = 0xFFFFFFF2)  returns 0x0000000F (0000ms, 1137ms total)
T1B08 001:629 JLINK_Go() -- CPU_WriteMem(4 bytes @ 0xE0002008) -- CPU_WriteMem(4 bytes @ 0xE000200C) -- CPU_WriteMem(4 bytes @ 0xE0002010) -- CPU_WriteMem(4 bytes @ 0xE0002014) -- CPU_WriteMem(4 bytes @ 0xE0002018) -- CPU_WriteMem(4 bytes @ 0xE000201C) (0008ms, 1137ms total)
T1B08 001:637 JLINK_IsHalted()  returns FALSE (0001ms, 1145ms total)
T1B08 001:688 JLINK_IsHalted() -- CPU_ReadMem(2 bytes @ 0x20000000)  returns TRUE (0007ms, 1145ms total)
T1B08 001:695 JLINK_ReadReg(R15)  returns 0x20000000 (0000ms, 1145ms total)
T1B08 001:695 JLINK_ClrBPEx(BPHandle = 0x0000000F)  returns 0x00 (0000ms, 1145ms total)
T1B08 001:695 JLINK_ReadReg(R0)  returns 0x00000000 (0000ms, 1145ms total)
T1B08 001:696 JLINK_WriteReg(R0, 0x08000700)  returns 0x00 (0000ms, 1145ms total)
T1B08 001:696 JLINK_WriteReg(R1, 0x00000100)  returns 0x00 (0000ms, 1145ms total)
T1B08 001:696 JLINK_WriteReg(R2, 0x00000000)  returns 0x00 (0000ms, 1145ms total)
T1B08 001:696 JLINK_WriteReg(R3, 0x00000000)  returns 0x00 (0000ms, 1145ms total)
T1B08 001:696 JLINK_WriteReg(R4, 0x00000000)  returns 0x00 (0000ms, 1145ms total)
T1B08 001:696 JLINK_WriteReg(R5, 0x00000000)  returns 0x00 (0000ms, 1145ms total)
T1B08 001:696 JLINK_WriteReg(R6, 0x00000000)  returns 0x00 (0000ms, 1145ms total)
T1B08 001:696 JLINK_WriteReg(R7, 0x00000000)  returns 0x00 (0000ms, 1145ms total)
T1B08 001:696 JLINK_WriteReg(R8, 0x00000000)  returns 0x00 (0000ms, 1145ms total)
T1B08 001:696 JLINK_WriteReg(R9, 0x2000024C)  returns 0x00 (0000ms, 1145ms total)
T1B08 001:696 JLINK_WriteReg(R10, 0x00000000)  returns 0x00 (0000ms, 1145ms total)
T1B08 001:696 JLINK_WriteReg(R11, 0x00000000)  returns 0x00 (0000ms, 1145ms total)
T1B08 001:696 JLINK_WriteReg(R12, 0x00000000)  returns 0x00 (0000ms, 1145ms total)
T1B08 001:696 JLINK_WriteReg(R13, 0x20000800)  returns 0x00 (0000ms, 1145ms total)
T1B08 001:696 JLINK_WriteReg(R14, 0x20000001)  returns 0x00 (0000ms, 1145ms total)
T1B08 001:696 JLINK_WriteReg(R15, 0x20000108)  returns 0x00 (0000ms, 1145ms total)
T1B08 001:697 JLINK_WriteReg(XPSR, 0x01000000)  returns 0x00 (0000ms, 1145ms total)
T1B08 001:697 JLINK_WriteReg(MSP, 0x20000800)  returns 0x00 (0000ms, 1145ms total)
T1B08 001:697 JLINK_WriteReg(PSP, 0x20000800)  returns 0x00 (0000ms, 1145ms total)
T1B08 001:697 JLINK_WriteReg(CFBP, 0x00000000)  returns 0x00 (0000ms, 1145ms total)
T1B08 001:697 JLINK_SetBPEx(Addr = 0x20000000, Type = 0xFFFFFFF2)  returns 0x00000010 (0000ms, 1145ms total)
T1B08 001:697 JLINK_Go() -- CPU_WriteMem(4 bytes @ 0xE0002008) -- CPU_WriteMem(4 bytes @ 0xE000200C) -- CPU_WriteMem(4 bytes @ 0xE0002010) -- CPU_WriteMem(4 bytes @ 0xE0002014) -- CPU_WriteMem(4 bytes @ 0xE0002018) -- CPU_WriteMem(4 bytes @ 0xE000201C) (0008ms, 1145ms total)
T1B08 001:705 JLINK_IsHalted() -- CPU_ReadMem(2 bytes @ 0x20000000)  returns TRUE (0007ms, 1153ms total)
T1B08 001:712 JLINK_ReadReg(R15)  returns 0x20000000 (0000ms, 1153ms total)
T1B08 001:712 JLINK_ClrBPEx(BPHandle = 0x00000010)  returns 0x00 (0000ms, 1153ms total)
T1B08 001:712 JLINK_ReadReg(R0)  returns 0x00000001 (0000ms, 1153ms total)
T1B08 001:712 JLINK_WriteReg(R0, 0x08000700)  returns 0x00 (0000ms, 1153ms total)
T1B08 001:712 JLINK_WriteReg(R1, 0x00000100)  returns 0x00 (0000ms, 1153ms total)
T1B08 001:712 JLINK_WriteReg(R2, 0x00000000)  returns 0x00 (0000ms, 1153ms total)
T1B08 001:712 JLINK_WriteReg(R3, 0x00000000)  returns 0x00 (0000ms, 1153ms total)
T1B08 001:712 JLINK_WriteReg(R4, 0x00000000)  returns 0x00 (0000ms, 1153ms total)
T1B08 001:712 JLINK_WriteReg(R5, 0x00000000)  returns 0x00 (0000ms, 1153ms total)
T1B08 001:713 JLINK_WriteReg(R6, 0x00000000)  returns 0x00 (0000ms, 1154ms total)
T1B08 001:713 JLINK_WriteReg(R7, 0x00000000)  returns 0x00 (0000ms, 1154ms total)
T1B08 001:713 JLINK_WriteReg(R8, 0x00000000)  returns 0x00 (0000ms, 1154ms total)
T1B08 001:713 JLINK_WriteReg(R9, 0x2000024C)  returns 0x00 (0000ms, 1154ms total)
